005793-Rx:02 03 40 01 00 10 00 35 
005794-Tx:02 83 01 70 F0 
005795-Rx:02 03 40 1B 00 3E A1 EE 
005796-Tx:02 83 01 70 F0 
005797-Rx:02 03 40 59 00 3E 01 FA 
005798-Tx:02 83 01 70 F0 
005799-Rx:02 03 40 AB 00 3E A0 09 
005800-Tx:02 83 01 70 F0 
005801-Rx:02 03 40 E9 00 3E 00 1D 
005802-Tx:02 83 01 70 F0 
005803-Rx:02 03 41 3B 00 3E A1 D8 
005804-Tx:02 83 01 70 F0 
005805-Rx:02 03 41 79 00 3E 01 CC 
005806-Tx:02 83 01 70 F0 
005807-Rx:02 03 41 CB 00 3E A1 EB 
005808-Tx:02 83 01 70 F0 
005809-Rx:02 03 42 09 00 3E 00 53 
005810-Tx:02 83 01 70 F0 
005811-Rx:02 01 00 01 00 30 6D ED 
005812-Tx:02 01 06 07 00 00 00 00 80 B4 4B 
005813-Rx:02 01 00 31 00 24 6D ED 
005814-Tx:02 01 05 01 00 00 00 00 EC 87 
005815-Rx:02 03 42 47 00 0C E1 91 
005816-Tx:02 83 01 70 F0 
005817-Rx:02 03 40 01 00 10 00 35 
005818-Tx:02 83 01 70 F0 
005819-Rx:02 03 40 1B 00 3E A1 EE 
005820-Tx:02 83 01 70 F0 
005821-Rx:02 03 40 59 00 3E 01 FA 
005822-Tx:02 83 01 70 F0 
005823-Rx:02 03 40 AB 00 3E A0 09 
005824-Tx:02 83 01 70 F0 
005825-Rx:02 03 40 E9 00 3E 00 1D 
005826-Tx:02 83 01 70 F0 
005827-Rx:02 03 41 3B 00 3E A1 D8 
005828-Tx:02 83 01 70 F0 
005829-Rx:02 03 41 79 00 3E 01 CC 
005830-Tx:02 83 01 70 F0 
005831-Rx:02 03 41 CB 00 3E A1 EB 
005832-Tx:02 83 01 70 F0 
005833-Rx:02 03 42 09 00 3E 00 53 
005834-Tx:02 83 01 70 F0 
005835-Rx:02 01 00 01 00 30 6D ED 
005836-Tx:02 01 06 07 00 00 00 00 80 B4 4B 
005837-Rx:02 01 00 31 00 24 6D ED 
005838-Tx:02 01 05 01 00 00 00 00 EC 87 
005839-Rx:02 03 42 47 00 0C E1 91 
005840-Tx:02 83 01 70 F0 
005841-Rx:02 03 40 01 00 10 00 35 
005842-Tx:02 83 01 70 F0 
005843-Rx:02 03 40 1B 00 3E A1 EE 
005844-Tx:02 83 01 70 F0 
005845-Rx:02 03 40 59 00 3E 01 FA 
005846-Tx:02 83 01 70 F0 
005847-Rx:02 03 40 AB 00 3E A0 09 
005848-Tx:02 83 01 70 F0 
005849-Rx:02 03 40 E9 00 3E 00 1D 
005850-Tx:02 83 01 70 F0 
005851-Rx:02 03 41 3B 00 3E A1 D8 
005852-Tx:02 83 01 70 F0 
005853-Rx:02 03 41 79 00 3E 01 CC 
005854-Tx:02 83 01 70 F0 
005855-Rx:02 03 41 CB 00 3E A1 EB 
005856-Tx:02 83 01 70 F0 
005857-Rx:02 03 42 09 00 3E 00 53 
005858-Tx:02 83 01 70 F0 
005859-Rx:02 01 00 01 00 30 6D ED 
005860-Tx:02 01 06 07 00 00 00 00 80 B4 4B 
