
08:32:24.243 设备发送:02 03 41 3B 00 3E A1 D8

08:32:24.257 设备发送:02 03 41 79 00 3E 01 CC

08:32:24.258 设备发送:02 03 41 CB 00 3E A1 EB

08:32:24.274 设备发送:02 03 42 09 00 3E 00 53

08:32:24.276 设备发送:02 01 00 01 00 30 6D ED

08:32:24.290 设备发送:02 01 00 2B 00 24 4C 2A

08:32:24.292 设备发送:02 03 64 01 00 0C 0B 0C

08:32:24.294 设备发送:02 03 40 01 00 10 00 35

08:32:24.297 设备发送:02 03 40 1B 00 3E A1 EE

08:32:24.306 设备发送:02 03 40 59 00 3E 01 FA

08:32:24.309 设备发送:02 03 40 AB 00 3E A0 09

08:32:24.324 设备发送:02 03 40 E9 00 3E 00 1D

08:32:24.328 设备发送:02 03 41 3B 00 3E A1 D8

08:32:24.331 设备发送:02 03 41 79 00 3E 01 CC

08:32:24.334 设备发送:02 03 41 CB 00 3E A1 EB

08:32:24.358 设备发送:02 03 42 09 00 3E 00 53

08:32:24.358 设备发送:02 01 00 01 00 30 6D ED

08:32:24.362 设备发送:02 01 00 2B 00 24 4C 2A

08:32:24.368 设备发送:02 03 64 01 00 0C 0B 0C

08:32:24.386 设备发送:02 03 40 01 00 10 00 35

08:32:24.392 设备发送:02 03 40 1B 00 3E A1 EE

08:32:24.397 设备发送:02 03 40 59 00 3E 01 FA

08:32:24.407 设备发送:02 03 40 AB 00 3E A0 09

08:32:24.424 设备发送:02 03 40 E9 00 3E 00 1D

08:32:24.441 设备发送:02 03 41 3B 00 3E A1 D8

08:32:24.458 设备发送:02 03 41 79 00 3E 01 CC

08:32:24.473 设备发送:02 03 41 CB 00 3E A1 EB

08:32:24.474 设备发送:02 03 42 09 00 3E 00 53

08:32:24.481 设备发送:02 01 00 01 00 30 6D ED

08:32:24.487 设备发送:02 01 00 2B 00 24 4C 2A

08:32:24.524 设备发送:02 03 64 01 00 0C 0B 0C

08:32:24.531 设备发送:02 03 40 01 00 10 00 35

08:32:24.541 设备发送:02 03 40 1B 00 3E A1 EE

08:32:24.557 设备发送:02 03 40 59 00 3E 01 FA

08:32:24.565 设备发送:02 03 40 AB 00 3E A0 09

08:32:24.574 设备发送:02 03 40 E9 00 3E 00 1D

08:32:24.575 设备发送:02 03 41 3B 00 3E A1 D8

08:32:24.582 设备发送:02 03 41 79 00 3E 01 CC

08:32:24.592 设备发送:02 03 41 CB 00 3E A1 EB

08:32:24.606 设备发送:02 03 42 09 00 3E 00 53

08:32:24.618 设备发送:02 01 00 01 00 30 6D ED

08:32:24.641 设备发送:02 01 00 2B 00 24 4C 2A

08:32:24.671 设备发送:02 03 64 01 00 0C 0B 0C

08:32:24.681 设备发送:02 03 40 01 00 10 00 35

08:32:24.683 设备发送:02 03 40 1B 00 3E A1 EE

08:32:24.692 设备发送:02 03 40 59 00 3E 01 FA

08:32:24.702 设备发送:02 03 40 AB 00 3E A0 09

08:32:24.711 设备发送:02 03 40 E9 00 3E 00 1D

08:32:24.723 设备发送:02 03 41 3B 00 3E A1 D8

08:32:24.746 设备发送:02 03 41 79 00 3E 01 CC

08:32:24.762 设备发送:02 03 41 CB 00 3E A1 EB

08:32:24.774 设备发送:02 03 42 09 00 3E 00 53

08:32:24.791 设备发送:02 01 00 01 00 30 6D ED

08:32:24.791 设备接收:02 01 06 00 00 00 00 00 00 B4 5C

08:32:24.806 设备发送:02 03 64 01 00 0C 0B 0C

08:32:24.836 设备发送:02 03 40 01 00 10 00 35

08:32:25.494 设备接收:02 03 20 00 00 00 00 00 00 00 00 00 00 00 00 00 00 00 00 00 00 00 00 00 00 00 00 00 00 00 00 00 00 00 00 E5 7A

08:32:25.504 设备发送:02 03 40 1B 00 3E A1 EE

08:32:27.553 设备接收:02 03 7C 00 00 00 00 00 00 00 00 00 00 00 00 00 00 00 00 00 00 00 00 00 00 00 00 00 00 00 00 00 00 00 00 00 00 00 00 00 00 00 00 00 00 00 00 00 00 00 00 00 00 00 00 00 00 00 00 00 00 00 00 00 00 00 00 00 00 00 00 00 00 00 00 00 00 00 00 00 00 00 00 00 00 00 00 00 00 00 00 00 00 00 00 00 00 00 00 00 00 00 00 00 00 00 00 00 00 00 00 00 00 00 00 00 00 00 00 00 00 00 00 00 00 00 00 06 78

08:32:27.568 设备发送:02 03 40 59 00 3E 01 FA

08:32:29.573 设备接收:02 03 7C 00 00 00 00 00 00 00 00 00 00 00 00 00 00 00 00 00 00 00 00 00 00 00 00 00 00 00 00 00 00 00 00 00 00 00 00 00 00 00 00 00 00 00 00 00 00 00 00 00 00 00 00 00 00 00 00 00 00 00 00 00 00 00 00 00 00 00 00 00 00 00 00 00 00 00 00 00 00 00 00 00 00 00 00 00 00 00 00 00 00 00 00 00 00 00 00 00 00 00 00 00 00 00 00 00 00 00 00 00 00 00 00 00 00 00 00 00 00 00 00 00 00 00 00 06 78

08:32:29.628 设备发送:02 03 40 AB 00 3E A0 09

08:32:31.634 设备接收:02 03 7C 00 00 00 00 00 00 00 00 00 00 00 00 00 00 00 00 00 00 00 00 00 00 00 00 00 00 00 00 00 00 00 00 00 00 00 00 00 00 00 00 00 00 00 00 00 00 00 00 00 00 00 00 00 00 00 00 00 00 00 00 00 00 00 00 00 00 00 00 00 00 00 00 00 00 00 00 00 00 00 00 00 00 00 00 00 00 00 00 00 00 00 00 00 00 00 00 00 00 00 00 00 00 00 00 00 00 00 00 00 00 00 00 00 00 00 00 00 00 00 00 00 00 00 00 06 78

08:32:31.663 设备发送:02 03 40 E9 00 3E 00 1D

08:32:33.683 设备接收:02 03 7C 00 00 00 00 00 00 00 00 00 00 00 00 00 00 00 00 00 00 00 00 00 00 00 00 00 00 00 00 00 00 00 00 00 00 00 00 00 00 00 00 00 00 00 00 00 00 00 00 00 00 00 00 00 00 00 00 00 00 00 00 00 00 00 00 00 00 00 00 00 00 00 00 00 00 00 00 00 00 00 00 00 00 00 00 00 00 00 00 00 00 00 00 00 00 00 00 00 00 00 00 00 00 00 00 00 00 00 00 00 00 00 00 00 00 00 00 00 00 00 00 00 00 00 00 06 78

08:32:33.746 设备发送:02 03 41 3B 00 3E A1 D8

08:32:35.749 设备接收:02 03 7C 00 00 00 00 00 00 00 00 00 00 00 00 00 00 00 00 00 00 00 00 00 00 00 00 00 00 00 00 00 00 00 00 00 00 00 00 00 00 00 00 00 00 00 00 00 00 00 00 00 00 00 00 00 00 00 00 00 00 00 00 00 00 00 00 00 00 00 00 00 00 00 00 00 00 00 00 00 00 00 00 00 00 00 00 00 00 00 00 00 00 00 00 00 00 00 00 00 00 00 00 00 00 00 00 00 00 00 00 00 00 00 00 00 00 00 00 00 00 00 00 00 00 00 00 06 78

08:32:35.814 设备发送:02 03 41 79 00 3E 01 CC

08:32:37.816 设备接收:02 03 7C 00 00 00 00 00 00 00 00 00 00 00 00 00 00 00 00 00 00 00 00 00 00 00 00 00 00 00 00 00 00 00 00 00 00 00 00 00 00 00 00 00 00 00 00 00 00 00 00 00 00 00 00 00 00 00 00 00 00 00 00 00 00 00 00 00 00 00 00 00 00 00 00 00 00 00 00 00 00 00 00 00 00 00 00 00 00 00 00 00 00 00 00 00 00 00 00 00 00 00 00 00 00 00 00 00 00 00 00 00 00 00 00 00 00 00 00 00 00 00 00 00 00 00 00 06 78

08:32:37.872 设备发送:02 03 41 CB 00 3E A1 EB

08:32:39.879 设备接收:02 03 7C 00 00 00 00 00 00 00 00 00 00 00 00 00 00 00 00 00 00 00 00 00 00 00 00 00 00 00 00 00 00 00 00 00 00 00 00 00 00 00 00 00 00 00 00 00 00 00 00 00 00 00 00 00 00 00 00 00 00 00 00 00 00 00 00 00 00 00 00 00 00 00 00 00 00 00 00 00 00 00 00 00 00 00 00 00 00 00 00 00 00 00 00 00 00 00 00 00 00 00 00 00 00 00 00 00 00 00 00 00 00 00 00 00 00 00 00 00 00 00 00 00 00 00 00 06 78

08:32:39.897 设备发送:02 03 42 09 00 3E 00 53

08:32:41.942 设备接收:02 03 7C 00 00 00 00 00 00 00 00 00 00 00 00 00 00 00 00 00 00 00 00 00 00 00 00 00 00 00 00 00 00 00 00 00 00 00 00 00 00 00 00 00 00 00 00 00 00 00 00 00 00 00 00 00 00 00 00 00 00 00 00 00 00 00 00 00 00 00 00 00 00 00 00 00 00 00 00 00 00 00 00 00 00 00 00 00 00 00 00 00 00 00 00 00 00 00 00 00 00 00 00 00 00 00 00 00 00 00 00 00 00 00 00 00 00 00 00 00 00 00 00 00 00 00 00 06 78

08:32:41.969 设备发送:02 01 00 01 00 30 6D ED

08:32:43.979 设备接收:02 01 06 00 00 00 00 00 00 B4 5C

08:32:43.997 设备发送:02 01 00 2B 00 24 4C 2A

08:32:46.000 设备接收:02 01 05 00 00 00 00 00 D1 47

08:32:46.049 设备发送:02 03 64 01 00 0C 0B 0C

08:32:48.059 设备接收:02 03 18 00 00 00 00 00 00 00 00 00 00 00 00 00 00 00 00 00 00 00 00 00 00 00 00 6D 33

08:32:48.080 设备发送:02 03 40 01 00 10 00 35

08:32:50.107 设备接收:02 03 20 00 00 00 00 00 00 00 00 00 00 00 00 00 00 00 00 00 00 00 00 00 00 00 00 00 00 00 00 00 00 00 00 E5 7A

08:32:50.117 设备发送:02 03 40 1B 00 3E A1 EE

08:32:52.134 设备接收:02 03 7C 00 00 00 00 00 00 00 00 00 00 00 00 00 00 00 00 00 00 00 00 00 00 00 00 00 00 00 00 00 00 00 00 00 00 00 00 00 00 00 00 00 00 00 00 00 00 00 00 00 00 00 00 00 00 00 00 00 00 00 00 00 00 00 00 00 00 00 00 00 00 00 00 00 00 00 00 00 00 00 00 00 00 00 00 00 00 00 00 00 00 00 00 00 00 00 00 00 00 00 00 00 00 00 00 00 00 00 00 00 00 00 00 00 00 00 00 00 00 00 00 00 00 00 00 06 78

08:32:52.168 设备发送:02 03 40 59 00 3E 01 FA

08:32:54.197 设备接收:02 03 7C 00 00 00 00 00 00 00 00 00 00 00 00 00 00 00 00 00 00 00 00 00 00 00 00 00 00 00 00 00 00 00 00 00 00 00 00 00 00 00 00 00 00 00 00 00 00 00 00 00 00 00 00 00 00 00 00 00 00 00 00 00 00 00 00 00 00 00 00 00 00 00 00 00 00 00 00 00 00 00 00 00 00 00 00 00 00 00 00 00 00 00 00 00 00 00 00 00 00 00 00 00 00 00 00 00 00 00 00 00 00 00 00 00 00 00 00 00 00 00 00 00 00 00 00 06 78

08:32:54.215 设备发送:02 03 40 AB 00 3E A0 09

